date Mon Dec 25 04:16:55.179 pm 2023
base hex  timestamps absolute
internal events logged
// version 15.4.0
// Measurement UUID: a5633174-3879-47f5-9695-706524e1a204
   8.274654 1  6C3             Rx   d 6 A0 0F 8A FF 4A FF  Length = 193910 BitCount = 101 ID = 1731
   8.286289 1  6C2             Tx   d 6 A1 0F 8A FF 4A FF  Length = 194244 BitCount = 100 ID = 1730
   8.304601 1  6C3             Rx   d 3 10 00 01  Length = 141914 BitCount = 75 ID = 1731
   8.315580 1  6C2             Tx   d 1 B1  Length = 108238 BitCount = 57 ID = 1730
   8.326111 1  6C2             Tx   d 4 10 01 01 00  Length = 166000 BitCount = 86 ID = 1730
   8.334559 1  6C3             Rx   d 1 B1  Length = 103914 BitCount = 56 ID = 1731
   8.345776 1  6C2             Tx   d 2 11 08  Length = 122000 BitCount = 64 ID = 1730
   8.349559 1  6C3             Rx   d 1 B2  Length = 103914 BitCount = 56 ID = 1731
   8.364684 1  6C3             Rx   d 8 21 09 20 0B 50 07 29 50  Length = 221926 BitCount = 115 ID = 1731
   8.379646 1  6C3             Rx   d 6 12 30 39 00 30 00  Length = 191910 BitCount = 100 ID = 1731
   8.385842 1  6C2             Tx   d 1 B3  Length = 106016 BitCount = 56 ID = 1730
   8.396401 1  6C2             Tx   d 5 12 20 3B A0 00  Length = 176016 BitCount = 91 ID = 1730
   8.409557 1  6C3             Rx   d 1 B3  Length = 105914 BitCount = 57 ID = 1731
   8.424619 1  6C3             Rx   d 5 13 21 3B A0 00  Length = 169914 BitCount = 89 ID = 1731
   8.435915 1  6C2             Tx   d 1 B4  Length = 110000 BitCount = 58 ID = 1730
   8.445892 1  6C2             Tx   d 2 13 33  Length = 128000 BitCount = 67 ID = 1730
   8.454552 1  6C3             Rx   d 1 B4  Length = 103914 BitCount = 56 ID = 1731
   9.338182 1  6C2             Tx   d 1 A3  Length = 106000 BitCount = 56 ID = 1730
   9.339580 1  6C3             Rx   d 6 A1 0F 8A FF 4A FF  Length = 189910 BitCount = 99 ID = 1731
  10.070240 1  6C2             Tx   d 8 14 52 05 82 00 1B 40 30  Length = 230015 BitCount = 118 ID = 1730
  10.074446 1  6C3             Rx   d 1 B5  Length = 103914 BitCount = 56 ID = 1731
  10.104479 1  6C3             Rx   d 3 14 53 05  Length = 137929 BitCount = 73 ID = 1731
  10.109403 1  6C2             Tx   d 1 B5  Length = 106016 BitCount = 56 ID = 1730
  10.134459 1  6C3             Rx   d 2 15 2E  Length = 119915 BitCount = 64 ID = 1731
  10.139310 1  6C2             Tx   d 1 B6  Length = 106016 BitCount = 56 ID = 1730
  10.149446 1  6C2             Tx   d 2 15 2F  Length = 122016 BitCount = 64 ID = 1730
  10.164444 1  6C3             Rx   d 1 B6  Length = 105914 BitCount = 57 ID = 1731
  10.170088 1  6C2             Tx   d 8 16 52 05 82 00 1B 40 30  Length = 228244 BitCount = 117 ID = 1730
  10.179442 1  6C3             Rx   d 1 B7  Length = 105914 BitCount = 57 ID = 1731
  10.194473 1  6C3             Rx   d 3 16 53 84  Length = 137914 BitCount = 73 ID = 1731
  10.200422 1  6C2             Tx   d 1 B7  Length = 108000 BitCount = 57 ID = 1730
  10.340791 1  6C2             Tx   d 1 A3  Length = 106238 BitCount = 56 ID = 1730
  10.344515 1  6C3             Rx   d 6 A1 0F 8A FF 4A FF  Length = 189910 BitCount = 99 ID = 1731
  11.341980 1  6C2             Tx   d 1 A3  Length = 106015 BitCount = 56 ID = 1730
  11.349459 1  6C3             Rx   d 6 A1 0F 8A FF 4A FF  Length = 189910 BitCount = 99 ID = 1731
  12.353822 1  6C2             Tx   d 1 A3  Length = 106254 BitCount = 56 ID = 1730
  12.354386 1  6C3             Rx   d 6 A1 0F 8A FF 4A FF  Length = 189910 BitCount = 99 ID = 1731
  13.357124 1  6C2             Tx   d 1 A3  Length = 106000 BitCount = 56 ID = 1730
  13.359320 1  6C3             Rx   d 6 A1 0F 8A FF 4A FF  Length = 189910 BitCount = 99 ID = 1731
  14.358040 1  6C2             Tx   d 1 A3  Length = 106000 BitCount = 56 ID = 1730
  14.364255 1  6C3             Rx   d 6 A1 0F 8A FF 4A FF  Length = 189910 BitCount = 99 ID = 1731
  15.359867 1  6C2             Tx   d 1 A3  Length = 106015 BitCount = 56 ID = 1730
  15.369208 1  6C3             Rx   d 6 A1 0F 8A FF 4A FF  Length = 189910 BitCount = 99 ID = 1731
  16.372151 1  6C2             Tx   d 1 A3  Length = 106016 BitCount = 56 ID = 1730
  16.374125 1  6C3             Rx   d 6 A1 0F 8A FF 4A FF  Length = 189910 BitCount = 99 ID = 1731
  17.374084 1  6C2             Tx   d 1 A3  Length = 106015 BitCount = 56 ID = 1730
  17.379061 1  6C3             Rx   d 6 A1 0F 8A FF 4A FF  Length = 189926 BitCount = 99 ID = 1731
  18.376114 1  6C2             Tx   d 1 A3  Length = 106238 BitCount = 56 ID = 1730
  18.383994 1  6C3             Rx   d 6 A1 0F 8A FF 4A FF  Length = 189910 BitCount = 99 ID = 1731
  19.388029 1  6C2             Tx   d 1 A3  Length = 106015 BitCount = 56 ID = 1730
  19.389220 1  6C3             Rx   d 6 A1 0F 8A FF 4A FF  Length = 189910 BitCount = 99 ID = 1731
  20.390335 1  6C2             Tx   d 1 A3  Length = 106238 BitCount = 56 ID = 1730
  20.393866 1  6C3             Rx   d 6 A1 0F 8A FF 4A FF  Length = 189910 BitCount = 99 ID = 1731
  21.392403 1  6C2             Tx   d 1 A3  Length = 106015 BitCount = 56 ID = 1730
  21.398801 1  6C3             Rx   d 6 A1 0F 8A FF 4A FF  Length = 189910 BitCount = 99 ID = 1731
  22.394508 1  6C2             Tx   d 1 A3  Length = 106016 BitCount = 56 ID = 1730
  22.403734 1  6C3             Rx   d 6 A1 0F 8A FF 4A FF  Length = 189926 BitCount = 99 ID = 1731
  23.406363 1  6C2             Tx   d 1 A3  Length = 106000 BitCount = 56 ID = 1730
  23.408916 1  6C3             Rx   d 6 A1 0F 8A FF 4A FF  Length = 189925 BitCount = 99 ID = 1731
  24.408739 1  6C2             Tx   d 1 A3  Length = 106000 BitCount = 56 ID = 1730
  24.413604 1  6C3             Rx   d 6 A1 0F 8A FF 4A FF  Length = 189910 BitCount = 99 ID = 1731
  25.411588 1  6C2             Tx   d 1 A3  Length = 106254 BitCount = 56 ID = 1730
  25.418539 1  6C3             Rx   d 6 A1 0F 8A FF 4A FF  Length = 189910 BitCount = 99 ID = 1731
  26.422478 1  6C2             Tx   d 1 A3  Length = 106000 BitCount = 56 ID = 1730
  26.423474 1  6C3             Rx   d 6 A1 0F 8A FF 4A FF  Length = 189910 BitCount = 99 ID = 1731
  27.424407 1  6C2             Tx   d 1 A3  Length = 106016 BitCount = 56 ID = 1730
  27.428409 1  6C3             Rx   d 6 A1 0F 8A FF 4A FF  Length = 189926 BitCount = 99 ID = 1731
  28.426982 1  6C2             Tx   d 1 A3  Length = 106016 BitCount = 56 ID = 1730
  28.433344 1  6C3             Rx   d 6 A1 0F 8A FF 4A FF  Length = 189910 BitCount = 99 ID = 1731
  29.428616 1  6C2             Tx   d 1 A3  Length = 106016 BitCount = 56 ID = 1730
  29.438279 1  6C3             Rx   d 6 A1 0F 8A FF 4A FF  Length = 189926 BitCount = 99 ID = 1731
  29.483222 1  6C3             Rx   d 3 17 53 85  Length = 135914 BitCount = 72 ID = 1731
  29.488741 1  6C2             Tx   d 1 B8  Length = 108238 BitCount = 57 ID = 1730
  29.509870 1  6C2             Tx   d 8 27 52 05 02 00 1B 40 30  Length = 230000 BitCount = 118 ID = 1730
  29.519592 1  6C2             Tx   d 8 28 57 0E 02 00 15 65 65  Length = 226244 BitCount = 116 ID = 1730
  29.529620 1  6C2             Tx   d 8 29 65 65 65 65 65 65 65  Length = 222000 BitCount = 114 ID = 1730
  29.541146 1  6C2             Tx   d 8 2A 65 65 57 0E 02 00 1F  Length = 228000 BitCount = 117 ID = 1730
  29.549804 1  6C2             Tx   d 8 2B 65 65 65 65 65 65 65  Length = 222000 BitCount = 114 ID = 1730
  29.559380 1  6C2             Tx   d 5 1C 65 65 65 65  Length = 170244 BitCount = 88 ID = 1730
  29.573184 1  6C3             Rx   d 1 BD  Length = 103914 BitCount = 56 ID = 1731
  29.589791 1  6C2             Tx   d 8 2D 57 0E 02 00 29 65 65  Length = 228016 BitCount = 117 ID = 1730
  29.599743 1  6C2             Tx   d 8 2E 65 65 65 65 65 65 65  Length = 218016 BitCount = 112 ID = 1730
  29.609853 1  6C2             Tx   d 8 2F 65 65 57 0D 26 00 05  Length = 224259 BitCount = 115 ID = 1730
  29.619750 1  6C2             Tx   d 8 20 65 65 65 65 65 65 65  Length = 222015 BitCount = 114 ID = 1730
  29.629743 1  6C2             Tx   d 8 21 65 65 65 57 07 26 00  Length = 224015 BitCount = 115 ID = 1730
  29.639653 1  6C2             Tx   d 6 12 05 3E 53 57 3C  Length = 190259 BitCount = 98 ID = 1730
  29.648181 1  6C3             Rx   d 1 B3  Length = 105915 BitCount = 57 ID = 1731
  29.669682 1  6C2             Tx   d 2 13 39  Length = 122000 BitCount = 64 ID = 1730
  29.678177 1  6C3             Rx   d 1 B4  Length = 103914 BitCount = 56 ID = 1731
  30.441491 1  6C2             Tx   d 1 A3  Length = 106015 BitCount = 56 ID = 1730
  30.443214 1  6C3             Rx   d 6 A1 0F 8A FF 4A FF  Length = 189910 BitCount = 99 ID = 1731
  31.443754 1  6C2             Tx   d 1 A3  Length = 106000 BitCount = 56 ID = 1730
  31.448251 1  6C3             Rx   d 6 A1 0F 8A FF 4A FF  Length = 189910 BitCount = 99 ID = 1731
  32.444782 1  6C2             Tx   d 1 A3  Length = 106238 BitCount = 56 ID = 1730
  32.453084 1  6C3             Rx   d 6 A1 0F 8A FF 4A FF  Length = 189911 BitCount = 99 ID = 1731
  33.456677 1  6C2             Tx   d 1 A3  Length = 106238 BitCount = 56 ID = 1730
  33.458019 1  6C3             Rx   d 6 A1 0F 8A FF 4A FF  Length = 189925 BitCount = 99 ID = 1731
  34.458914 1  6C2             Tx   d 1 A3  Length = 106015 BitCount = 56 ID = 1730
  34.462954 1  6C3             Rx   d 6 A1 0F 8A FF 4A FF  Length = 189926 BitCount = 99 ID = 1731
  35.462457 1  6C2             Tx   d 1 A3  Length = 106253 BitCount = 56 ID = 1730
  35.468055 1  6C3             Rx   d 6 A1 0F 8A FF 4A FF  Length = 189910 BitCount = 99 ID = 1731
  36.463197 1  6C2             Tx   d 1 A3  Length = 106238 BitCount = 56 ID = 1730
  36.472825 1  6C3             Rx   d 6 A1 0F 8A FF 4A FF  Length = 189910 BitCount = 99 ID = 1731
  37.475057 1  6C2             Tx   d 1 A3  Length = 106254 BitCount = 56 ID = 1730
  37.477758 1  6C3             Rx   d 6 A1 0F 8A FF 4A FF  Length = 189910 BitCount = 99 ID = 1731
  38.477343 1  6C2             Tx   d 1 A3  Length = 106016 BitCount = 56 ID = 1730
  38.482693 1  6C3             Rx   d 6 A1 0F 8A FF 4A FF  Length = 189911 BitCount = 99 ID = 1731
  39.479095 1  6C2             Tx   d 1 A3  Length = 106238 BitCount = 56 ID = 1730
  39.487628 1  6C3             Rx   d 6 A1 0F 8A FF 4A FF  Length = 189911 BitCount = 99 ID = 1731
  40.491139 1  6C2             Tx   d 1 A3  Length = 106254 BitCount = 56 ID = 1730
  40.492563 1  6C3             Rx   d 6 A1 0F 8A FF 4A FF  Length = 189926 BitCount = 99 ID = 1731
  41.495321 1  6C2             Tx   d 1 A3  Length = 106016 BitCount = 56 ID = 1730
  41.497515 1  6C3             Rx   d 6 A1 0F 8A FF 4A FF  Length = 189910 BitCount = 99 ID = 1731
  42.495455 1  6C2             Tx   d 1 A3  Length = 106000 BitCount = 56 ID = 1730
  42.502434 1  6C3             Rx   d 6 A1 0F 8A FF 4A FF  Length = 189910 BitCount = 99 ID = 1731
  43.327043 1  6C2             Tx   d 2 14 33  Length = 122000 BitCount = 64 ID = 1730
  43.327293 1  6C3             Rx   d 1 B5  Length = 103930 BitCount = 56 ID = 1731
  43.348027 1  6C2             Tx   d 8 15 52 05 82 00 1B 40 30  Length = 228260 BitCount = 117 ID = 1730
  43.357310 1  6C3             Rx   d 1 B6  Length = 105930 BitCount = 57 ID = 1731
  43.509708 1  6C2             Tx   d 1 A3  Length = 106000 BitCount = 56 ID = 1730
  43.522367 1  6C3             Rx   d 6 A1 0F 8A FF 4A FF  Length = 189926 BitCount = 99 ID = 1731
  44.519713 1  6C2             Tx   d 1 A3  Length = 106016 BitCount = 56 ID = 1730
  44.527644 1  6C3             Rx   d 6 A1 0F 8A FF 4A FF  Length = 189910 BitCount = 99 ID = 1731
  45.531696 1  6C2             Tx   d 1 A3  Length = 106000 BitCount = 56 ID = 1730
  45.532238 1  6C3             Rx   d 6 A1 0F 8A FF 4A FF  Length = 189926 BitCount = 99 ID = 1731
  46.533573 1  6C2             Tx   d 1 A3  Length = 106254 BitCount = 56 ID = 1730
  46.537231 1  6C3             Rx   d 6 A1 0F 8A FF 4A FF  Length = 189910 BitCount = 99 ID = 1731
  47.535454 1  6C2             Tx   d 1 A3  Length = 106238 BitCount = 56 ID = 1730
  47.542107 1  6C3             Rx   d 6 A1 0F 8A FF 4A FF  Length = 189910 BitCount = 99 ID = 1731
  48.538113 1  6C2             Tx   d 1 A3  Length = 106253 BitCount = 56 ID = 1730
  48.547398 1  6C3             Rx   d 6 A1 0F 8A FF 4A FF  Length = 189910 BitCount = 99 ID = 1731
  49.549543 1  6C2             Tx   d 1 A3  Length = 106015 BitCount = 56 ID = 1730
  49.552434 1  6C3             Rx   d 6 A1 0F 8A FF 4A FF  Length = 189910 BitCount = 99 ID = 1731
  50.554582 1  6C2             Tx   d 1 A3  Length = 106000 BitCount = 56 ID = 1730
  50.556913 1  6C3             Rx   d 6 A1 0F 8A FF 4A FF  Length = 189925 BitCount = 99 ID = 1731
  51.553767 1  6C2             Tx   d 1 A3  Length = 106253 BitCount = 56 ID = 1730
  51.562064 1  6C3             Rx   d 6 A1 0F 8A FF 4A FF  Length = 189910 BitCount = 99 ID = 1731
  52.565731 1  6C2             Tx   d 1 A3  Length = 106000 BitCount = 56 ID = 1730
  52.566782 1  6C3             Rx   d 6 A1 0F 8A FF 4A FF  Length = 189926 BitCount = 99 ID = 1731
  53.568486 1  6C2             Tx   d 1 A3  Length = 106016 BitCount = 56 ID = 1730
  53.571717 1  6C3             Rx   d 6 A1 0F 8A FF 4A FF  Length = 189910 BitCount = 99 ID = 1731
  54.569572 1  6C2             Tx   d 1 A3  Length = 106000 BitCount = 56 ID = 1730
  54.576651 1  6C3             Rx   d 6 A1 0F 8A FF 4A FF  Length = 189910 BitCount = 99 ID = 1731
  55.572454 1  6C2             Tx   d 1 A3  Length = 106000 BitCount = 56 ID = 1730
  55.581586 1  6C3             Rx   d 6 A1 0F 8A FF 4A FF  Length = 189910 BitCount = 99 ID = 1731
  56.583680 1  6C2             Tx   d 1 A3  Length = 106000 BitCount = 56 ID = 1730
  56.586751 1  6C3             Rx   d 6 A1 0F 8A FF 4A FF  Length = 189910 BitCount = 99 ID = 1731
  57.586107 1  6C2             Tx   d 1 A3  Length = 106015 BitCount = 56 ID = 1730
  57.591456 1  6C3             Rx   d 6 A1 0F 8A FF 4A FF  Length = 189925 BitCount = 99 ID = 1731
  58.588232 1  6C2             Tx   d 1 A3  Length = 106238 BitCount = 56 ID = 1730
  58.596391 1  6C3             Rx   d 6 A1 0F 8A FF 4A FF  Length = 189910 BitCount = 99 ID = 1731
  59.181299 1  6C3             Rx   d 3 18 53 84  Length = 135915 BitCount = 72 ID = 1731
  59.189013 1  6C2             Tx   d 1 B9  Length = 106000 BitCount = 56 ID = 1730
  59.600116 1  6C2             Tx   d 1 A3  Length = 106000 BitCount = 56 ID = 1730
  59.601418 1  6C3             Rx   d 6 A1 0F 8A FF 4A FF  Length = 189911 BitCount = 99 ID = 1731
  60.603605 1  6C2             Tx   d 1 A3  Length = 106238 BitCount = 56 ID = 1730
  60.606261 1  6C3             Rx   d 6 A1 0F 8A FF 4A FF  Length = 189910 BitCount = 99 ID = 1731
  61.604156 1  6C2             Tx   d 1 A3  Length = 106016 BitCount = 56 ID = 1730
  61.611197 1  6C3             Rx   d 6 A1 0F 8A FF 4A FF  Length = 189926 BitCount = 99 ID = 1731
  62.615991 1  6C2             Tx   d 1 A3  Length = 106238 BitCount = 56 ID = 1730
  62.631130 1  6C3             Rx   d 6 A1 0F 8A FF 4A FF  Length = 189910 BitCount = 99 ID = 1731
  63.628285 1  6C2             Tx   d 1 A3  Length = 106000 BitCount = 56 ID = 1730
  63.636065 1  6C3             Rx   d 6 A1 0F 8A FF 4A FF  Length = 189911 BitCount = 99 ID = 1731
  64.640215 1  6C2             Tx   d 1 A3  Length = 106016 BitCount = 56 ID = 1730
  64.640999 1  6C3             Rx   d 6 A1 0F 8A FF 4A FF  Length = 189910 BitCount = 99 ID = 1731
