date Mon Dec 25 04:16:55.179 pm 2023
base hex  timestamps absolute
internal events logged
// version 15.4.0
// Measurement UUID: a5633174-3879-47f5-9695-706524e1a204
   5.002032 1  6C1             Tx   d 6 A0 0F 8A FF 4A FF  Length = 198000 BitCount = 102 ID = 1729
   5.009872 1  6C0             Rx   d 6 A1 0F 8A FF 4A FF  Length = 191926 BitCount = 100 ID = 1728
   5.061986 1  6C1             Tx   d 3 10 00 01  Length = 146015 BitCount = 76 ID = 1729
   5.062336 1  6C0             Rx   d 1 A8  Length = 105915 BitCount = 57 ID = 1728
   5.071325 1  6C1             Tx   d 1 A8  Length = 110016 BitCount = 58 ID = 1729
   5.181623 1  6C1             Tx   d 6 A0 0F 8A FF 4A FF  Length = 198016 BitCount = 102 ID = 1729
   5.189852 1  6C0             Rx   d 6 A1 0F 8A FF 4A FF  Length = 191910 BitCount = 100 ID = 1728
   6.181354 1  6C1             Tx   d 1 A3  Length = 108015 BitCount = 57 ID = 1729
   6.194787 1  6C0             Rx   d 6 A1 0F 8A FF 4A FF  Length = 191925 BitCount = 100 ID = 1728
   7.192120 1  6C1             Tx   d 1 A3  Length = 108000 BitCount = 57 ID = 1729
   7.199721 1  6C0             Rx   d 6 A1 0F 8A FF 4A FF  Length = 191926 BitCount = 100 ID = 1728
   8.191604 1  6C1             Tx   d 1 A3  Length = 108015 BitCount = 57 ID = 1729
   8.204656 1  6C0             Rx   d 6 A1 0F 8A FF 4A FF  Length = 191910 BitCount = 100 ID = 1728
   8.294624 1  6C0             Rx   d 4 10 01 01 00  Length = 165914 BitCount = 87 ID = 1728
   8.301543 1  6C1             Tx   d 1 B1  Length = 108000 BitCount = 57 ID = 1729
   8.324579 1  6C0             Rx   d 2 11 08  Length = 121914 BitCount = 65 ID = 1728
   8.331386 1  6C1             Tx   d 1 B2  Length = 110000 BitCount = 58 ID = 1729
   8.341542 1  6C1             Tx   d 8 20 09 20 0B 50 07 29 50  Length = 226000 BitCount = 116 ID = 1729
   8.351255 1  6C1             Tx   d 6 11 30 39 00 31 00  Length = 196000 BitCount = 101 ID = 1729
   8.354559 1  6C0             Rx   d 1 B2  Length = 105914 BitCount = 57 ID = 1728
   8.384630 1  6C0             Rx   d 5 12 20 3B A0 00  Length = 175926 BitCount = 92 ID = 1728
   8.391429 1  6C1             Tx   d 1 B3  Length = 108016 BitCount = 57 ID = 1729
   8.401388 1  6C1             Tx   d 5 12 21 3B A0 00  Length = 174016 BitCount = 90 ID = 1729
   8.414557 1  6C0             Rx   d 1 B3  Length = 105914 BitCount = 57 ID = 1728
   8.444680 1  6C0             Rx   d 8 13 52 05 82 00 1B 40 30  Length = 229910 BitCount = 119 ID = 1728
   8.451084 1  6C1             Tx   d 1 B4  Length = 110000 BitCount = 58 ID = 1729
   8.471486 1  6C1             Tx   d 3 13 53 84  Length = 142000 BitCount = 74 ID = 1729
   8.474552 1  6C0             Rx   d 1 B4  Length = 105915 BitCount = 57 ID = 1728
   9.201465 1  6C1             Tx   d 1 A3  Length = 108016 BitCount = 57 ID = 1729
   9.209690 1  6C0             Rx   d 6 A1 0F 8A FF 4A FF  Length = 191910 BitCount = 100 ID = 1728
  10.211251 1  6C1             Tx   d 1 A3  Length = 108000 BitCount = 57 ID = 1729
  10.214526 1  6C0             Rx   d 6 A1 0F 8A FF 4A FF  Length = 191910 BitCount = 100 ID = 1728
  11.210913 1  6C1             Tx   d 1 A3  Length = 108000 BitCount = 57 ID = 1729
  11.219461 1  6C0             Rx   d 6 A1 0F 8A FF 4A FF  Length = 191910 BitCount = 100 ID = 1728
  12.210966 1  6C1             Tx   d 1 A3  Length = 108000 BitCount = 57 ID = 1729
  12.224396 1  6C0             Rx   d 6 A1 0F 8A FF 4A FF  Length = 191925 BitCount = 100 ID = 1728
  13.221454 1  6C1             Tx   d 1 A3  Length = 108000 BitCount = 57 ID = 1729
  13.229433 1  6C0             Rx   d 6 A1 0F 8A FF 4A FF  Length = 191910 BitCount = 100 ID = 1728
  14.221463 1  6C1             Tx   d 1 A3  Length = 108238 BitCount = 57 ID = 1729
  14.234266 1  6C0             Rx   d 6 A1 0F 8A FF 4A FF  Length = 191910 BitCount = 100 ID = 1728
  15.231680 1  6C1             Tx   d 1 A3  Length = 108254 BitCount = 57 ID = 1729
  15.239201 1  6C0             Rx   d 6 A1 0F 8A FF 4A FF  Length = 191926 BitCount = 100 ID = 1728
  16.231848 1  6C1             Tx   d 1 A3  Length = 108000 BitCount = 57 ID = 1729
  16.244135 1  6C0             Rx   d 6 A1 0F 8A FF 4A FF  Length = 191925 BitCount = 100 ID = 1728
  17.241378 1  6C1             Tx   d 1 A3  Length = 108016 BitCount = 57 ID = 1729
  17.249071 1  6C0             Rx   d 6 A1 0F 8A FF 4A FF  Length = 191926 BitCount = 100 ID = 1728
  18.070831 1  6C1             Tx   d 3 14 53 05  Length = 142241 BitCount = 74 ID = 1729
  18.073932 1  6C0             Rx   d 1 B5  Length = 105915 BitCount = 57 ID = 1728
  18.081529 1  6C1             Tx   d 2 15 2E  Length = 124000 BitCount = 65 ID = 1729
  18.088939 1  6C0             Rx   d 1 B6  Length = 107915 BitCount = 58 ID = 1728
  18.103946 1  6C0             Rx   d 2 14 2F  Length = 123914 BitCount = 66 ID = 1728
  18.111219 1  6C1             Tx   d 1 B5  Length = 108015 BitCount = 57 ID = 1729
  18.134051 1  6C0             Rx   d 8 15 52 05 82 00 1B 40 30  Length = 227925 BitCount = 118 ID = 1728
  18.140952 1  6C1             Tx   d 1 B6  Length = 108016 BitCount = 57 ID = 1729
  18.151194 1  6C1             Tx   d 3 16 53 85  Length = 140016 BitCount = 73 ID = 1729
  18.163929 1  6C0             Rx   d 1 B7  Length = 109914 BitCount = 59 ID = 1728
  18.194048 1  6C0             Rx   d 8 26 52 05 02 00 1B 40 30  Length = 229911 BitCount = 119 ID = 1728
  18.209041 1  6C0             Rx   d 8 27 57 0E 02 00 15 65 65  Length = 223926 BitCount = 116 ID = 1728
  18.224036 1  6C0             Rx   d 8 28 65 65 65 65 65 65 65  Length = 219910 BitCount = 114 ID = 1728
  18.239044 1  6C0             Rx   d 8 29 65 65 57 0E 02 00 1F  Length = 227910 BitCount = 118 ID = 1728
  18.241398 1  6C1             Tx   d 1 A3  Length = 108000 BitCount = 57 ID = 1729
  18.254037 1  6C0             Rx   d 8 2A 65 65 65 65 65 65 65  Length = 221910 BitCount = 115 ID = 1728
  18.269163 1  6C0             Rx   d 8 2B 65 65 65 65 57 0E 02  Length = 219910 BitCount = 114 ID = 1728
  18.284034 1  6C0             Rx   d 8 2C 00 29 65 65 65 65 65  Length = 221926 BitCount = 115 ID = 1728
  18.299030 1  6C0             Rx   d 8 2D 65 65 65 65 65 65 57  Length = 217926 BitCount = 113 ID = 1728
  18.314034 1  6C0             Rx   d 8 2E 0D 26 00 05 65 65 65  Length = 223910 BitCount = 116 ID = 1728
  18.329030 1  6C0             Rx   d 8 1F 65 65 65 65 65 65 65  Length = 219910 BitCount = 114 ID = 1728
  18.331384 1  6C1             Tx   d 1 B0  Length = 112000 BitCount = 59 ID = 1729
  18.358999 1  6C0             Rx   d 6 A1 0F 8A FF 4A FF  Length = 191910 BitCount = 100 ID = 1728
  18.373930 1  6C0             Rx   d 2 10 39  Length = 123914 BitCount = 66 ID = 1728
  18.381111 1  6C1             Tx   d 1 B1  Length = 108000 BitCount = 57 ID = 1729
  18.674016 1  6C0             Rx   d 8 21 57 08 06 01 0B 49 41  Length = 227910 BitCount = 118 ID = 1728
  18.689103 1  6C0             Rx   d 4 12 54 3A 00  Length = 157914 BitCount = 83 ID = 1728
  18.691756 1  6C1             Tx   d 1 B3  Length = 108015 BitCount = 57 ID = 1729
  18.973991 1  6C0             Rx   d 8 23 57 07 06 01 15 4F 09  Length = 223910 BitCount = 116 ID = 1728
  18.989231 1  6C0             Rx   d 3 14 0C 3A  Length = 139914 BitCount = 74 ID = 1728
  18.991259 1  6C1             Tx   d 1 B5  Length = 108000 BitCount = 57 ID = 1729
  19.273973 1  6C0             Rx   d 8 25 57 08 06 01 1F 46 75  Length = 223910 BitCount = 116 ID = 1728
  19.289070 1  6C0             Rx   d 4 16 05 0C 3A  Length = 159914 BitCount = 84 ID = 1728
  19.291500 1  6C1             Tx   d 1 B7  Length = 110000 BitCount = 58 ID = 1729
  19.350906 1  6C1             Tx   d 1 A3  Length = 108000 BitCount = 57 ID = 1729
  19.363933 1  6C0             Rx   d 6 A1 0F 8A FF 4A FF  Length = 191910 BitCount = 100 ID = 1728
  20.173924 1  6C0             Rx   d 8 27 57 08 02 18 0B 65 39  Length = 221910 BitCount = 115 ID = 1728
  20.188845 1  6C0             Rx   d 4 18 65 65 43  Length = 155914 BitCount = 82 ID = 1728
  20.190983 1  6C1             Tx   d 1 B9  Length = 110000 BitCount = 58 ID = 1729
  20.361478 1  6C1             Tx   d 1 A3  Length = 108238 BitCount = 57 ID = 1729
  20.368891 1  6C0             Rx   d 6 A1 0F 8A FF 4A FF  Length = 191910 BitCount = 100 ID = 1728
  20.773886 1  6C0             Rx   d 8 29 57 08 02 18 15 65 31  Length = 223911 BitCount = 116 ID = 1728
  20.788806 1  6C0             Rx   d 4 1A 38 65 43  Length = 155914 BitCount = 82 ID = 1728
  20.790874 1  6C1             Tx   d 1 BB  Length = 112016 BitCount = 59 ID = 1729
  21.073857 1  6C0             Rx   d 8 2B 57 08 02 18 1F 65 38  Length = 225911 BitCount = 117 ID = 1728
  21.088788 1  6C0             Rx   d 4 1C 65 65 43  Length = 157914 BitCount = 83 ID = 1728
  21.091506 1  6C1             Tx   d 1 BD  Length = 110000 BitCount = 58 ID = 1729
  21.361160 1  6C1             Tx   d 1 A3  Length = 108000 BitCount = 57 ID = 1729
  21.373803 1  6C0             Rx   d 6 A1 0F 8A FF 4A FF  Length = 191926 BitCount = 100 ID = 1728
  21.673816 1  6C0             Rx   d 8 2D 57 08 06 01 0B 49 41  Length = 223910 BitCount = 116 ID = 1728
  21.688756 1  6C0             Rx   d 4 1E 54 3A 00  Length = 163914 BitCount = 86 ID = 1728
  21.691296 1  6C1             Tx   d 1 BF  Length = 112000 BitCount = 59 ID = 1729
  21.973798 1  6C0             Rx   d 8 2F 57 07 06 01 15 4F 09  Length = 225926 BitCount = 117 ID = 1728
  21.988714 1  6C0             Rx   d 3 10 0C 3A  Length = 141914 BitCount = 75 ID = 1728
  21.991144 1  6C1             Tx   d 1 B1  Length = 108000 BitCount = 57 ID = 1729
  22.273778 1  6C0             Rx   d 8 21 57 08 06 01 1F 46 75  Length = 223910 BitCount = 116 ID = 1728
  22.288710 1  6C0             Rx   d 4 12 05 0C 3A  Length = 157914 BitCount = 83 ID = 1728
  22.291284 1  6C1             Tx   d 1 B3  Length = 108000 BitCount = 57 ID = 1729
  22.370887 1  6C1             Tx   d 1 A3  Length = 108000 BitCount = 57 ID = 1729
  22.378738 1  6C0             Rx   d 6 A1 0F 8A FF 4A FF  Length = 191910 BitCount = 100 ID = 1728
  23.173728 1  6C0             Rx   d 8 23 57 08 02 18 0B 65 39  Length = 221910 BitCount = 115 ID = 1728
  23.188682 1  6C0             Rx   d 4 14 65 65 43  Length = 155914 BitCount = 82 ID = 1728
  23.191007 1  6C1             Tx   d 1 B5  Length = 108015 BitCount = 57 ID = 1729
  23.370945 1  6C1             Tx   d 1 A3  Length = 108253 BitCount = 57 ID = 1729
  23.383673 1  6C0             Rx   d 6 A1 0F 8A FF 4A FF  Length = 191911 BitCount = 100 ID = 1728
  23.473697 1  6C0             Rx   d 8 25 57 08 02 18 15 65 31  Length = 221910 BitCount = 115 ID = 1728
  23.488632 1  6C0             Rx   d 4 16 38 65 43  Length = 157914 BitCount = 83 ID = 1728
  23.490929 1  6C1             Tx   d 1 B7  Length = 110015 BitCount = 58 ID = 1729
  23.773764 1  6C0             Rx   d 8 27 57 08 02 18 1F 65 38  Length = 223910 BitCount = 116 ID = 1728
  23.788695 1  6C0             Rx   d 4 18 65 65 43  Length = 155925 BitCount = 82 ID = 1728
  23.791236 1  6C1             Tx   d 1 B9  Length = 110016 BitCount = 58 ID = 1729
  24.373642 1  6C0             Rx   d 8 29 57 08 06 01 0B 49 41  Length = 223910 BitCount = 116 ID = 1728
  24.381169 1  6C1             Tx   d 1 A3  Length = 108015 BitCount = 57 ID = 1729
  24.388573 1  6C0             Rx   d 4 1A 54 3A 00  Length = 157914 BitCount = 83 ID = 1728
  24.391242 1  6C1             Tx   d 1 BB  Length = 112000 BitCount = 59 ID = 1729
  24.418607 1  6C0             Rx   d 6 A1 0F 8A FF 4A FF  Length = 191910 BitCount = 100 ID = 1728
  24.673624 1  6C0             Rx   d 8 2B 57 07 06 01 15 4F 09  Length = 225910 BitCount = 117 ID = 1728
  24.688537 1  6C0             Rx   d 3 1C 0C 3A  Length = 139914 BitCount = 74 ID = 1728
  24.691021 1  6C1             Tx   d 1 BD  Length = 110015 BitCount = 58 ID = 1729
  24.973603 1  6C0             Rx   d 8 2D 57 08 06 01 1F 46 75  Length = 223911 BitCount = 116 ID = 1728
  24.988646 1  6C0             Rx   d 4 1E 05 0C 3A  Length = 159926 BitCount = 84 ID = 1728
  24.990917 1  6C1             Tx   d 1 BF  Length = 112016 BitCount = 59 ID = 1729
  25.410770 1  6C1             Tx   d 1 A3  Length = 108254 BitCount = 57 ID = 1729
  25.423541 1  6C0             Rx   d 6 A1 0F 8A FF 4A FF  Length = 191910 BitCount = 100 ID = 1728
  25.873554 1  6C0             Rx   d 8 2F 57 08 02 18 0B 65 39  Length = 221910 BitCount = 115 ID = 1728
  25.888478 1  6C0             Rx   d 4 10 65 65 43  Length = 157914 BitCount = 83 ID = 1728
  25.891024 1  6C1             Tx   d 1 B1  Length = 108000 BitCount = 57 ID = 1729
  26.173525 1  6C0             Rx   d 8 21 57 08 02 18 15 65 31  Length = 223911 BitCount = 116 ID = 1728
  26.188675 1  6C0             Rx   d 4 12 38 65 43  Length = 155914 BitCount = 82 ID = 1728
  26.191143 1  6C1             Tx   d 1 B3  Length = 108000 BitCount = 57 ID = 1729
  26.420994 1  6C1             Tx   d 1 A3  Length = 108000 BitCount = 57 ID = 1729
  26.428475 1  6C0             Rx   d 6 A1 0F 8A FF 4A FF  Length = 191910 BitCount = 100 ID = 1728
  26.473508 1  6C0             Rx   d 8 23 57 08 02 18 1F 65 38  Length = 225910 BitCount = 117 ID = 1728
  26.488596 1  6C0             Rx   d 4 14 65 65 43  Length = 155915 BitCount = 82 ID = 1728
  26.491136 1  6C1             Tx   d 1 B5  Length = 108016 BitCount = 57 ID = 1729
  27.073467 1  6C0             Rx   d 8 25 57 08 06 01 0B 49 41  Length = 223910 BitCount = 116 ID = 1728
  27.088476 1  6C0             Rx   d 4 16 54 3A 00  Length = 161914 BitCount = 85 ID = 1728
  27.090878 1  6C1             Tx   d 1 B7  Length = 110000 BitCount = 58 ID = 1729
  27.373450 1  6C0             Rx   d 8 27 57 07 06 01 15 4F 09  Length = 225925 BitCount = 117 ID = 1728
  27.388415 1  6C0             Rx   d 3 18 0C 3A  Length = 139929 BitCount = 74 ID = 1728
  27.391176 1  6C1             Tx   d 1 B9  Length = 110016 BitCount = 58 ID = 1729
  27.420914 1  6C1             Tx   d 1 A3  Length = 108016 BitCount = 57 ID = 1729
  27.433411 1  6C0             Rx   d 6 A1 0F 8A FF 4A FF  Length = 191910 BitCount = 100 ID = 1728
  27.673430 1  6C0             Rx   d 8 29 57 08 06 01 1F 46 75  Length = 225910 BitCount = 117 ID = 1728
  27.688467 1  6C0             Rx   d 4 1A 05 0C 3A  Length = 157915 BitCount = 83 ID = 1728
  27.690971 1  6C1             Tx   d 1 BB  Length = 112000 BitCount = 59 ID = 1729
  28.430680 1  6C1             Tx   d 1 A3  Length = 108254 BitCount = 57 ID = 1729
  28.438347 1  6C0             Rx   d 6 A1 0F 8A FF 4A FF  Length = 191911 BitCount = 100 ID = 1728
  28.573382 1  6C0             Rx   d 8 2B 57 08 02 18 0B 65 39  Length = 223910 BitCount = 116 ID = 1728
  28.588302 1  6C0             Rx   d 4 1C 65 65 43  Length = 157915 BitCount = 83 ID = 1728
  28.590954 1  6C1             Tx   d 1 BD  Length = 110000 BitCount = 58 ID = 1729
  28.873350 1  6C0             Rx   d 8 2D 57 08 02 18 15 65 31  Length = 223910 BitCount = 116 ID = 1728
  28.888286 1  6C0             Rx   d 4 1E 38 65 43  Length = 159914 BitCount = 84 ID = 1728
  28.890804 1  6C1             Tx   d 1 BF  Length = 112000 BitCount = 59 ID = 1729
  29.173332 1  6C0             Rx   d 8 2F 57 08 02 18 1F 65 38  Length = 225926 BitCount = 117 ID = 1728
  29.188290 1  6C0             Rx   d 4 10 65 65 43  Length = 157926 BitCount = 83 ID = 1728
  29.190949 1  6C1             Tx   d 1 B1  Length = 108016 BitCount = 57 ID = 1729
  29.430748 1  6C1             Tx   d 1 A3  Length = 108254 BitCount = 57 ID = 1729
  29.443281 1  6C0             Rx   d 6 A1 0F 8A FF 4A FF  Length = 191910 BitCount = 100 ID = 1728
  29.578308 1  6C0             Rx   d 8 21 52 05 02 00 1B 40 30  Length = 227925 BitCount = 118 ID = 1728
  29.593305 1  6C0             Rx   d 8 22 57 0E 02 00 15 65 65  Length = 225926 BitCount = 117 ID = 1728
  29.608475 1  6C0             Rx   d 8 23 65 65 65 65 65 65 65  Length = 217910 BitCount = 113 ID = 1728
  29.623304 1  6C0             Rx   d 8 24 65 65 57 0E 02 00 1F  Length = 225910 BitCount = 117 ID = 1728
  29.638294 1  6C0             Rx   d 8 25 65 65 65 65 65 65 65  Length = 217926 BitCount = 113 ID = 1728
  29.653246 1  6C0             Rx   d 5 16 65 65 65 65  Length = 169914 BitCount = 89 ID = 1728
  29.661013 1  6C1             Tx   d 1 B7  Length = 110000 BitCount = 58 ID = 1729
  29.698297 1  6C0             Rx   d 8 27 57 0E 02 00 29 65 65  Length = 223911 BitCount = 116 ID = 1728
  29.713291 1  6C0             Rx   d 8 28 65 65 65 65 65 65 65  Length = 219910 BitCount = 114 ID = 1728
  29.728306 1  6C0             Rx   d 8 29 65 65 57 0D 26 00 05  Length = 221910 BitCount = 115 ID = 1728
  29.743292 1  6C0             Rx   d 8 2A 65 65 65 65 65 65 65  Length = 221911 BitCount = 115 ID = 1728
  29.758292 1  6C0             Rx   d 8 2B 65 65 65 57 07 26 00  Length = 221910 BitCount = 115 ID = 1728
  29.773257 1  6C0             Rx   d 6 1C 05 3E 53 57 3C  Length = 189910 BitCount = 99 ID = 1728
  29.781136 1  6C1             Tx   d 1 BD  Length = 110000 BitCount = 58 ID = 1729
  30.441379 1  6C1             Tx   d 1 A3  Length = 108015 BitCount = 57 ID = 1729
  30.448217 1  6C0             Rx   d 6 A1 0F 8A FF 4A FF  Length = 191910 BitCount = 100 ID = 1728
  31.441086 1  6C1             Tx   d 1 A3  Length = 108000 BitCount = 57 ID = 1729
  31.453151 1  6C0             Rx   d 6 A1 0F 8A FF 4A FF  Length = 191910 BitCount = 100 ID = 1728
  32.450693 1  6C1             Tx   d 1 A3  Length = 108000 BitCount = 57 ID = 1729
  32.458086 1  6C0             Rx   d 6 A1 0F 8A FF 4A FF  Length = 191910 BitCount = 100 ID = 1728
  33.450692 1  6C1             Tx   d 1 A3  Length = 108000 BitCount = 57 ID = 1729
  33.463130 1  6C0             Rx   d 6 A1 0F 8A FF 4A FF  Length = 191910 BitCount = 100 ID = 1728
  34.460938 1  6C1             Tx   d 1 A3  Length = 108015 BitCount = 57 ID = 1729
  34.467956 1  6C0             Rx   d 6 A1 0F 8A FF 4A FF  Length = 191910 BitCount = 100 ID = 1728
  35.461040 1  6C1             Tx   d 1 A3  Length = 108015 BitCount = 57 ID = 1729
  35.472891 1  6C0             Rx   d 6 A1 0F 8A FF 4A FF  Length = 191910 BitCount = 100 ID = 1728
  36.470717 1  6C1             Tx   d 1 A3  Length = 108238 BitCount = 57 ID = 1729
  36.477840 1  6C0             Rx   d 6 A1 0F 8A FF 4A FF  Length = 191910 BitCount = 100 ID = 1728
  37.470881 1  6C1             Tx   d 1 A3  Length = 108016 BitCount = 57 ID = 1729
  37.482760 1  6C0             Rx   d 6 A1 0F 8A FF 4A FF  Length = 191910 BitCount = 100 ID = 1728
  38.480853 1  6C1             Tx   d 1 A3  Length = 108016 BitCount = 57 ID = 1729
  38.487822 1  6C0             Rx   d 6 A1 0F 8A FF 4A FF  Length = 191910 BitCount = 100 ID = 1728
  39.480841 1  6C1             Tx   d 1 A3  Length = 108000 BitCount = 57 ID = 1729
  39.492631 1  6C0             Rx   d 6 A1 0F 8A FF 4A FF  Length = 191911 BitCount = 100 ID = 1728
  40.490813 1  6C1             Tx   d 1 A3  Length = 108016 BitCount = 57 ID = 1729
  40.497566 1  6C0             Rx   d 6 A1 0F 8A FF 4A FF  Length = 191910 BitCount = 100 ID = 1728
  41.490852 1  6C1             Tx   d 1 A3  Length = 108016 BitCount = 57 ID = 1729
  41.502499 1  6C0             Rx   d 6 A1 0F 8A FF 4A FF  Length = 191911 BitCount = 100 ID = 1728
  42.500984 1  6C1             Tx   d 1 A3  Length = 108238 BitCount = 57 ID = 1729
  42.507556 1  6C0             Rx   d 6 A1 0F 8A FF 4A FF  Length = 191910 BitCount = 100 ID = 1728
  43.332821 1  6C0             Rx   d 2 1D 33  Length = 123929 BitCount = 66 ID = 1728
  43.340936 1  6C1             Tx   d 1 BE  Length = 110016 BitCount = 58 ID = 1729
  43.362416 1  6C0             Rx   d 8 1E 52 05 82 00 1B 40 30  Length = 227926 BitCount = 118 ID = 1728
  43.370591 1  6C1             Tx   d 1 BF  Length = 112015 BitCount = 59 ID = 1729
  43.380984 1  6C1             Tx   d 3 17 53 84  Length = 140015 BitCount = 73 ID = 1729
  43.392604 1  6C0             Rx   d 1 B8  Length = 107914 BitCount = 58 ID = 1728
  43.401043 1  6C1             Tx   d 3 18 53 05  Length = 142241 BitCount = 74 ID = 1729
  43.407653 1  6C0             Rx   d 1 B9  Length = 105914 BitCount = 57 ID = 1728
  43.421030 1  6C1             Tx   d 2 19 2E  Length = 126000 BitCount = 66 ID = 1729
  43.422288 1  6C0             Rx   d 1 BA  Length = 105914 BitCount = 57 ID = 1728
  43.453051 1  6C0             Rx   d 2 1F 2F  Length = 123914 BitCount = 66 ID = 1728
  43.460752 1  6C1             Tx   d 1 B0  Length = 112000 BitCount = 59 ID = 1729
  43.482414 1  6C0             Rx   d 8 10 52 05 82 00 1B 40 30  Length = 233910 BitCount = 121 ID = 1728
  43.490784 1  6C1             Tx   d 1 B1  Length = 108000 BitCount = 57 ID = 1729
  43.500979 1  6C1             Tx   d 1 A3  Length = 108000 BitCount = 57 ID = 1729
  43.510858 1  6C1             Tx   d 3 1A 53 85  Length = 140000 BitCount = 73 ID = 1729
  43.512398 1  6C0             Rx   d 1 BB  Length = 105915 BitCount = 57 ID = 1728
  43.527536 1  6C0             Rx   d 6 A1 0F 8A FF 4A FF  Length = 191926 BitCount = 100 ID = 1728
  43.542404 1  6C0             Rx   d 8 21 52 05 02 00 1B 40 30  Length = 227926 BitCount = 118 ID = 1728
  43.557444 1  6C0             Rx   d 8 22 57 0E 02 00 15 65 65  Length = 225910 BitCount = 117 ID = 1728
  43.572485 1  6C0             Rx   d 8 23 65 65 65 65 65 65 65  Length = 217911 BitCount = 113 ID = 1728
  43.587499 1  6C0             Rx   d 8 24 65 65 57 0E 02 00 1F  Length = 225911 BitCount = 117 ID = 1728
  43.602390 1  6C0             Rx   d 8 25 65 65 65 65 65 65 65  Length = 217910 BitCount = 113 ID = 1728
  43.617392 1  6C0             Rx   d 8 26 65 65 65 65 57 0E 02  Length = 219911 BitCount = 114 ID = 1728
  43.632413 1  6C0             Rx   d 8 27 00 29 65 65 65 65 65  Length = 223911 BitCount = 116 ID = 1728
  43.647600 1  6C0             Rx   d 8 28 65 65 65 65 65 65 57  Length = 217910 BitCount = 113 ID = 1728
  43.662390 1  6C0             Rx   d 8 29 0D 26 00 05 65 65 65  Length = 221910 BitCount = 115 ID = 1728
  43.677374 1  6C0             Rx   d 8 1A 65 65 65 65 65 65 65  Length = 217910 BitCount = 113 ID = 1728
  43.681078 1  6C1             Tx   d 1 BB  Length = 112000 BitCount = 59 ID = 1729
  43.722285 1  6C0             Rx   d 2 1B 39  Length = 121930 BitCount = 65 ID = 1728
  43.731180 1  6C1             Tx   d 1 BC  Length = 108016 BitCount = 57 ID = 1729
  44.520675 1  6C1             Tx   d 1 A3  Length = 108016 BitCount = 57 ID = 1729
  44.532304 1  6C0             Rx   d 6 A1 0F 8A FF 4A FF  Length = 191911 BitCount = 100 ID = 1728
  45.530407 1  6C1             Tx   d 1 A3  Length = 108238 BitCount = 57 ID = 1729
  45.537435 1  6C0             Rx   d 6 A1 0F 8A FF 4A FF  Length = 191926 BitCount = 100 ID = 1728
  46.530616 1  6C1             Tx   d 1 A3  Length = 108254 BitCount = 57 ID = 1729
  46.542188 1  6C0             Rx   d 6 A1 0F 8A FF 4A FF  Length = 191910 BitCount = 100 ID = 1728
  47.540671 1  6C1             Tx   d 1 A3  Length = 108238 BitCount = 57 ID = 1729
  47.547109 1  6C0             Rx   d 6 A1 0F 8A FF 4A FF  Length = 191910 BitCount = 100 ID = 1728
  48.540789 1  6C1             Tx   d 1 A3  Length = 108015 BitCount = 57 ID = 1729
  48.552032 1  6C0             Rx   d 6 A1 0F 8A FF 4A FF  Length = 191926 BitCount = 100 ID = 1728
  49.550326 1  6C1             Tx   d 1 A3  Length = 108253 BitCount = 57 ID = 1729
  49.557135 1  6C0             Rx   d 6 A1 0F 8A FF 4A FF  Length = 191911 BitCount = 100 ID = 1728
  50.550328 1  6C1             Tx   d 1 A3  Length = 108238 BitCount = 57 ID = 1729
  50.562109 1  6C0             Rx   d 6 A1 0F 8A FF 4A FF  Length = 191910 BitCount = 100 ID = 1728
  51.560538 1  6C1             Tx   d 1 A3  Length = 108015 BitCount = 57 ID = 1729
  51.567016 1  6C0             Rx   d 6 A1 0F 8A FF 4A FF  Length = 191910 BitCount = 100 ID = 1728
  52.560949 1  6C1             Tx   d 1 A3  Length = 108000 BitCount = 57 ID = 1729
  52.571882 1  6C0             Rx   d 6 A1 0F 8A FF 4A FF  Length = 191911 BitCount = 100 ID = 1728
  53.570471 1  6C1             Tx   d 1 A3  Length = 108016 BitCount = 57 ID = 1729
  53.576718 1  6C0             Rx   d 6 A1 0F 8A FF 4A FF  Length = 191910 BitCount = 100 ID = 1728
  54.570392 1  6C1             Tx   d 1 A3  Length = 108000 BitCount = 57 ID = 1729
  54.581653 1  6C0             Rx   d 6 A1 0F 8A FF 4A FF  Length = 191926 BitCount = 100 ID = 1728
  55.580710 1  6C1             Tx   d 1 A3  Length = 108238 BitCount = 57 ID = 1729
  55.586597 1  6C0             Rx   d 6 A1 0F 8A FF 4A FF  Length = 191910 BitCount = 100 ID = 1728
  56.580597 1  6C1             Tx   d 1 A3  Length = 108000 BitCount = 57 ID = 1729
  56.591523 1  6C0             Rx   d 6 A1 0F 8A FF 4A FF  Length = 191910 BitCount = 100 ID = 1728
  57.590756 1  6C1             Tx   d 1 A3  Length = 108015 BitCount = 57 ID = 1729
  57.596458 1  6C0             Rx   d 6 A1 0F 8A FF 4A FF  Length = 191910 BitCount = 100 ID = 1728
  58.590571 1  6C1             Tx   d 1 A3  Length = 108000 BitCount = 57 ID = 1729
  58.601393 1  6C0             Rx   d 6 A1 0F 8A FF 4A FF  Length = 191910 BitCount = 100 ID = 1728
  59.171399 1  6C0             Rx   d 8 2C 57 08 02 18 0B 65 39  Length = 221926 BitCount = 115 ID = 1728
  59.186320 1  6C0             Rx   d 4 1D 65 65 43  Length = 157915 BitCount = 83 ID = 1728
  59.190377 1  6C1             Tx   d 1 BE  Length = 110000 BitCount = 58 ID = 1729
  59.600482 1  6C1             Tx   d 1 A3  Length = 108000 BitCount = 57 ID = 1729
  59.606328 1  6C0             Rx   d 6 A1 0F 8A FF 4A FF  Length = 191910 BitCount = 100 ID = 1728
  59.771361 1  6C0             Rx   d 8 2E 57 08 02 18 15 65 31  Length = 223926 BitCount = 116 ID = 1728
  59.786282 1  6C0             Rx   d 4 1F 38 65 43  Length = 157914 BitCount = 83 ID = 1728
  59.790351 1  6C1             Tx   d 1 B0  Length = 112000 BitCount = 59 ID = 1729
  60.071334 1  6C0             Rx   d 8 20 57 08 02 18 1F 65 38  Length = 227910 BitCount = 118 ID = 1728
  60.086260 1  6C0             Rx   d 4 11 65 65 43  Length = 155914 BitCount = 82 ID = 1728
  60.090483 1  6C1             Tx   d 1 B2  Length = 110000 BitCount = 58 ID = 1729
  60.601190 1  6C1             Tx   d 1 A3  Length = 108000 BitCount = 57 ID = 1729
  60.611262 1  6C0             Rx   d 6 A1 0F 8A FF 4A FF  Length = 191910 BitCount = 100 ID = 1728
  60.671294 1  6C0             Rx   d 8 22 57 08 06 01 0B 49 41  Length = 225926 BitCount = 117 ID = 1728
  60.686225 1  6C0             Rx   d 4 13 54 3A 00  Length = 159914 BitCount = 84 ID = 1728
  60.690606 1  6C1             Tx   d 1 B4  Length = 110238 BitCount = 58 ID = 1729
  60.971272 1  6C0             Rx   d 8 24 57 07 06 01 15 4F 09  Length = 223911 BitCount = 116 ID = 1728
  60.986184 1  6C0             Rx   d 3 15 0C 3A  Length = 137915 BitCount = 73 ID = 1728
  60.990552 1  6C1             Tx   d 1 B6  Length = 108238 BitCount = 57 ID = 1729
  61.271253 1  6C0             Rx   d 8 26 57 08 06 01 1F 46 75  Length = 223911 BitCount = 116 ID = 1728
  61.286185 1  6C0             Rx   d 4 17 05 0C 3A  Length = 157914 BitCount = 83 ID = 1728
  61.290382 1  6C1             Tx   d 1 B8  Length = 110016 BitCount = 58 ID = 1729
  61.610099 1  6C1             Tx   d 1 A3  Length = 108016 BitCount = 57 ID = 1729
  61.616197 1  6C0             Rx   d 6 A1 0F 8A FF 4A FF  Length = 191910 BitCount = 100 ID = 1728
  62.171205 1  6C0             Rx   d 8 28 57 08 02 18 0B 65 39  Length = 221911 BitCount = 115 ID = 1728
  62.186124 1  6C0             Rx   d 4 19 65 65 43  Length = 155915 BitCount = 82 ID = 1728
  62.190281 1  6C1             Tx   d 1 BA  Length = 108000 BitCount = 57 ID = 1729
  62.471173 1  6C0             Rx   d 8 2A 57 08 02 18 15 65 31  Length = 221910 BitCount = 115 ID = 1728
  62.486105 1  6C0             Rx   d 4 1B 38 65 43  Length = 155914 BitCount = 82 ID = 1728
  62.490371 1  6C1             Tx   d 1 BC  Length = 108000 BitCount = 57 ID = 1729
  62.609949 1  6C1             Tx   d 1 A3  Length = 108000 BitCount = 57 ID = 1729
  62.621132 1  6C0             Rx   d 6 A1 0F 8A FF 4A FF  Length = 191911 BitCount = 100 ID = 1728
  62.771156 1  6C0             Rx   d 8 2C 57 08 02 18 1F 65 38  Length = 223910 BitCount = 116 ID = 1728
  62.786088 1  6C0             Rx   d 4 1D 65 65 43  Length = 157914 BitCount = 83 ID = 1728
  62.790244 1  6C1             Tx   d 1 BE  Length = 110000 BitCount = 58 ID = 1729
  63.371116 1  6C0             Rx   d 8 2E 57 08 06 01 0B 49 41  Length = 223926 BitCount = 116 ID = 1728
  63.386057 1  6C0             Rx   d 4 1F 54 3A 00  Length = 165915 BitCount = 87 ID = 1728
  63.390326 1  6C1             Tx   d 1 B0  Length = 112238 BitCount = 59 ID = 1729
  63.620428 1  6C1             Tx   d 1 A3  Length = 108000 BitCount = 57 ID = 1729
  63.626068 1  6C0             Rx   d 6 A1 0F 8A FF 4A FF  Length = 191910 BitCount = 100 ID = 1728
  63.671103 1  6C0             Rx   d 8 20 57 07 06 01 15 4F 09  Length = 229911 BitCount = 119 ID = 1728
  63.686011 1  6C0             Rx   d 3 11 0C 3A  Length = 139914 BitCount = 74 ID = 1728
  63.690467 1  6C1             Tx   d 1 B2  Length = 110000 BitCount = 58 ID = 1729
  63.971079 1  6C0             Rx   d 8 22 57 08 06 01 1F 46 75  Length = 223911 BitCount = 116 ID = 1728
  63.986012 1  6C0             Rx   d 4 13 05 0C 3A  Length = 159914 BitCount = 84 ID = 1728
  63.990486 1  6C1             Tx   d 1 B4  Length = 110016 BitCount = 58 ID = 1729
  64.620475 1  6C1             Tx   d 1 A3  Length = 108015 BitCount = 57 ID = 1729
  64.631002 1  6C0             Rx   d 6 A1 0F 8A FF 4A FF  Length = 191925 BitCount = 100 ID = 1728
  64.871031 1  6C0             Rx   d 8 24 57 08 02 18 0B 65 39  Length = 223910 BitCount = 116 ID = 1728
  64.885951 1  6C0             Rx   d 4 15 65 65 43  Length = 155914 BitCount = 82 ID = 1728
  64.890327 1  6C1             Tx   d 1 B6  Length = 108238 BitCount = 57 ID = 1729
  65.170998 1  6C0             Rx   d 8 26 57 08 02 18 15 65 31  Length = 221910 BitCount = 115 ID = 1728
  65.185931 1  6C0             Rx   d 4 17 38 65 43  Length = 155914 BitCount = 82 ID = 1728
  65.190137 1  6C1             Tx   d 1 B8  Length = 110000 BitCount = 58 ID = 1729
  65.470981 1  6C0             Rx   d 8 28 57 08 02 18 1F 65 38  Length = 223910 BitCount = 116 ID = 1728
  65.486420 1  6C0             Rx   d 4 19 65 65 43  Length = 155914 BitCount = 82 ID = 1728
  65.490409 1  6C1             Tx   d 1 BA  Length = 108000 BitCount = 57 ID = 1729
